
T3374 000:061 SEGGER J-Link V4.62 Log File (0000ms, 0061ms total)
T3374 000:061 DLL Compiled: Jan 25 2013 15:19:47 (0000ms, 0061ms total)
T3374 000:061 Logging started @ 2014-08-06 23:46 (0000ms, 0061ms total)
T3374 000:061 JLINK_SetWarnOutHandler(...) (0000ms, 0061ms total)
T3374 000:061 JLINK_OpenEx(...)
Firmware: J-Link ARM V8 compiled Nov 14 2012 22:34:52
Hardware: V8.00
S/N: 17935099
Feature(s): RDI,FlashDL,FlashBP,JFlash  returns O.K. (0024ms, 0085ms total)
T3374 000:085 JLINK_SetErrorOutHandler(...) (0000ms, 0085ms total)
T3374 000:085 JLINK_ExecCommand("ProjectFile = "F:\MSP430\TM4C123\HANKERLM4F232\HANKERLM4F232\Code\QFLM4F232\DMP_5.1\my_dmp6已完成移植，但是dowmload_dmp_firm失败\JLinkSettings.ini"", ...)  returns 0x00 (0001ms, 0086ms total)
T3374 000:089 JLINK_ExecCommand("Device = LM4F232H5QD", ...)
                JLINK_ExecCommand("map ram 0x20000000 - 0x20007FFF", ...)  returns 0x00 (0000ms, 0000ms total)
                JLINK_AddMirrorAreaEx(Addr = 0x00000000, Size = 0x00000000) (0000ms, 0000ms total)
              Device "LM4F232H5QD" selected (256 KB flash, 32 KB RAM).  returns 0x00 (0004ms, 0090ms total)
T3374 000:093 JLINK_ExecCommand("DisableConnectionTimeout", ...)  returns 0x00 (0000ms, 0090ms total)
T3374 000:093 JLINK_TIF_Select(JLINKARM_TIF_JTAG)  returns 0x00 (0000ms, 0090ms total)
T3374 000:093 JLINK_SetSpeed(2000) (0000ms, 0090ms total)
T3374 000:093 JLINK_GetHardwareVersion()  returns 0x13880 (0000ms, 0090ms total)
T3374 000:093 JLINK_GetDLLVersion()  returns 46200 (0000ms, 0090ms total)
T3374 000:093 JLINK_GetFirmwareString(...) (0000ms, 0090ms total)
T3374 000:100 JLINK_GetDLLVersion()  returns 46200 (0000ms, 0090ms total)
T3374 000:100 JLINK_GetCompileDateTime() (0000ms, 0090ms total)
T3374 000:101 JLINK_GetFirmwareString(...) (0000ms, 0090ms total)
T3374 000:103 JLINK_GetHardwareVersion()  returns 0x13880 (0000ms, 0090ms total)
T3374 000:108 JLINK_GetIdData(...) >0x2F8 JTAG>TotalIRLen = 4, IRPrint = 0x01 >0x30 JTAG> >0x210 JTAG> >0x78 JTAG> >0x40 JTAG> >0x40 JTAG> >0x48 JTAG> >0x40 JTAG> >0x40 JTAG> >0x40 JTAG> >0x48 JTAG> >0x40 JTAG> >0x40 JTAG> >0x40 JTAG> >0x30 JTAG> >0x40 JTAG> >0x48 JTAG> >0x40 JTAG> >0x30 JTAG> >0x78 JTAG> >0x40 JTAG> >0x40 JTAG> >0x48 JTAG> >0x40 JTAG> >0x40 JTAG> >0x40 JTAG> >0x48 JTAG> >0x40 JTAG> >0x40 JTAG> >0x30 JTAG> >0x40 JTAG> >0x40 JTAG> >0x40 JTAG> >0x40 JTAG> >0x40 JTAG> >0x48 JTAG>
 >0x40 JTAG> >0x78 JTAG> >0x40 JTAG> >0x30 JTAG> >0x40 JTAG> >0x40 JTAG> >0x40 JTAG> >0x40 JTAG> >0x40 JTAG> >0x48 JTAG> >0x40 JTAG> >0x78 JTAG> >0x40 JTAG> >0x30 JTAG> >0x40 JTAG> >0x48 JTAG> >0x40 JTAG> >0x40 JTAG> >0x40 JTAG> >0x30 JTAG> >0x40 JTAG> >0x48 JTAG> >0x40 JTAG>Found Cortex-M4 r0p1, Little endian. >0x48 JTAG> >0x48 JTAG> >0x40 JTAG> >0x40 JTAG> >0x30 JTAG> >0x30 JTAG> >0x48 JTAG> >0x40 JTAG> >0x78 JTAG> >0x40 JTAG> >0x30 JTAG> >0x40 JTAG> >0x48 JTAG> >0x40 JTAG> >0x40 JTAG> >0x40 JTAG>
 >0x30 JTAG> >0x40 JTAG> >0x48 JTAG> >0x40 JTAG>TPIU fitted. >0x40 JTAG> >0x40 JTAG> >0x30 JTAG> >0x40 JTAG> >0x48 JTAG> >0x40 JTAG>ETM fitted. >0x40 JTAG> >0x40 JTAG> >0x30 JTAG> >0x40 JTAG> >0x48 JTAG> >0x40 JTAG> >0x40 JTAG> >0x40 JTAG> >0x30 JTAG> >0x40 JTAG> >0x48 JTAG> >0x40 JTAG>FPUnit: 6 code (BP) slots and 2 literal slots >0x40 JTAG> >0x40 JTAG> >0x30 JTAG> >0x40 JTAG> >0x48 JTAG> >0x40 JTAG> >0x40 JTAG> >0x40 JTAG> >0x30 JTAG> >0x40 JTAG> >0x48 JTAG> >0x40 JTAG> >0x40 JTAG> >0x40 JTAG>
 >0x30 JTAG> >0x30 JTAG> >0x48 JTAG> >0x40 JTAG> ScanLen=4 NumDevices=1 aId[0]=0x4BA00477 aIrRead[0]=0 aScanLen[0]=0 aScanRead[0]=0 (0134ms, 0224ms total)
T3374 000:242 JLINK_JTAG_GetDeviceID(DeviceIndex = 0)  returns 0x4BA00477 (0000ms, 0224ms total)
T3374 000:242 JLINK_JTAG_GetDeviceInfo(DeviceIndex = 0)  returns 0x00 (0000ms, 0224ms total)
T3374 000:242 JLINK_GetDeviceFamily()  returns 14 (0000ms, 0224ms total)
T3374 000:245 JLINK_ReadMem (0xE00FFFF0, 0x0010 Bytes, ...) -- CPU is running -- CPU_ReadMem(16 bytes @ 0xE00FFFF0) -- Data:  0D 00 00 00 10 00 00 00 05 00 00 00 B1 00 00 00  returns 0x00 (0004ms, 0228ms total)
T3374 000:249 JLINK_ReadMem (0xE00FFFD0, 0x0020 Bytes, ...) -- CPU is running -- CPU_ReadMem(32 bytes @ 0xE00FFFD0) -- Data:  04 00 00 00 00 00 00 00 00 00 00 00 00 00 00 00 ...  returns 0x00 (0002ms, 0230ms total)
T3374 000:251 JLINK_ReadMem (0xE00FF000, 0x0018 Bytes, ...) -- CPU is running -- CPU_ReadMem(24 bytes @ 0xE00FF000) -- Data:  03 F0 F0 FF 03 20 F0 FF 03 30 F0 FF 03 10 F0 FF ...  returns 0x00 (0001ms, 0231ms total)
T3374 000:252 JLINK_ReadMemU32(0xE000ED00, 0x0001 Items, ...) -- CPU is running -- CPU_ReadMem(4 bytes @ 0xE000ED00) -- Data:  41 C2 0F 41  returns 0x01 (0001ms, 0232ms total)
T3374 000:253 JLINK_ReadMemU32(0xE000EF40, 0x0001 Items, ...) -- CPU is running -- CPU_ReadMem(4 bytes @ 0xE000EF40) -- Data:  21 00 11 10  returns 0x01 (0001ms, 0233ms total)
T3374 000:254 JLINK_ReadMemU32(0xE000EF44, 0x0001 Items, ...) -- CPU is running -- CPU_ReadMem(4 bytes @ 0xE000EF44) -- Data:  11 00 00 11  returns 0x01 (0001ms, 0234ms total)
T3374 000:255 JLINK_SetResetType(JLINKARM_RESET_TYPE_NORMAL)  returns JLINKARM_RESET_TYPE_NORMAL (0000ms, 0234ms total)
T3374 000:255 JLINK_Reset() >0x78 JTAG> >0x78 JTAG> >0x40 JTAG> >0x40 JTAG> >0x48 JTAG> >0x40 JTAG> >0x40 JTAG> >0x40 JTAG> >0x48 JTAG> >0x40 JTAG> >0x40 JTAG> >0x30 JTAG> >0x40 JTAG> >0x40 JTAG> >0x40 JTAG> >0x40 JTAG> >0x40 JTAG> >0x48 JTAG> >0x40 JTAG> >0x78 JTAG> >0x40 JTAG> >0x30 JTAG> >0x40 JTAG> >0x40 JTAG> >0x40 JTAG> >0x40 JTAG> >0x40 JTAG> >0x48 JTAG> >0x40 JTAG> >0x78 JTAG> >0x40 JTAG> >0x30 JTAG> >0x40 JTAG> >0x48 JTAG> >0x40 JTAG> >0x40 JTAG> >0x40 JTAG> >0x30 JTAG> >0x40 JTAG> >0x48 JTAG>
 >0x40 JTAG>Found Cortex-M4 r0p1, Little endian. >0x48 JTAG> >0x48 JTAG> >0x40 JTAG> >0x40 JTAG> >0x30 JTAG> >0x30 JTAG> >0x48 JTAG> >0x40 JTAG> >0x78 JTAG> >0x40 JTAG> >0x30 JTAG> >0x40 JTAG> >0x48 JTAG> >0x40 JTAG> >0x40 JTAG> >0x40 JTAG> >0x30 JTAG> >0x40 JTAG> >0x48 JTAG> >0x40 JTAG>TPIU fitted. >0x40 JTAG> >0x40 JTAG> >0x30 JTAG> >0x40 JTAG> >0x48 JTAG> >0x40 JTAG>ETM fitted. >0x40 JTAG> >0x40 JTAG> >0x30 JTAG> >0x40 JTAG> >0x48 JTAG> >0x40 JTAG> >0x40 JTAG> >0x40 JTAG> >0x30 JTAG> >0x40 JTAG>
 >0x48 JTAG> >0x40 JTAG>FPUnit: 6 code (BP) slots and 2 literal slots >0x40 JTAG> >0x40 JTAG> >0x30 JTAG> >0x40 JTAG> >0x48 JTAG> >0x40 JTAG> >0x40 JTAG> >0x40 JTAG> >0x30 JTAG> >0x40 JTAG> >0x48 JTAG> >0x40 JTAG> >0x40 JTAG> >0x40 JTAG> >0x30 JTAG> >0x30 JTAG> >0x48 JTAG> >0x40 JTAG> -- CPU is running -- CPU_WriteMem(4 bytes @ 0xE000EDF0) -- CPU is running -- CPU_WriteMem(4 bytes @ 0xE000EDFC) -- CPU is running -- CPU_WriteMem(4 bytes @ 0xE000ED0C) -- CPU is running -- CPU_ReadMem(4 bytes @ 0xE000EDF0)
 -- CPU is running -- CPU_ReadMem(4 bytes @ 0xE000EDF0) -- CPU is running -- CPU_WriteMem(4 bytes @ 0xE000EDF0) -- CPU is running -- CPU_WriteMem(4 bytes @ 0xE000EDFC) -- CPU is running -- CPU_ReadMem(4 bytes @ 0xE000EDF0) >0xB8 JTAG> >0x40 JTAG> >0x30 JTAG> >0x40 JTAG> >0x48 JTAG> >0x40 JTAG> -- CPU_WriteMem(4 bytes @ 0xE000EDFC) -- CPU_WriteMem(4 bytes @ 0xE0001028) -- CPU_WriteMem(4 bytes @ 0xE0001038) -- CPU_WriteMem(4 bytes @ 0xE0001048) -- CPU_WriteMem(4 bytes @ 0xE0001058)
 -- CPU_WriteMem(4 bytes @ 0xE0002000) (0147ms, 0381ms total)
T3374 000:402 JLINK_Halt()  returns 0x00 (0000ms, 0381ms total)
T3374 000:402 JLINK_IsHalted() -- MA0 is in flash -- Unmirror addr 0x0000026C  returns TRUE (0000ms, 0381ms total)
T3374 000:402 JLINK_ReadMemU32(0xE000EDF0, 0x0001 Items, ...) -- CPU_ReadMem(4 bytes @ 0xE000EDF0) -- Data:  03 00 03 00  returns 0x01 (0001ms, 0382ms total)
T3374 000:403 JLINK_WriteU32(0xE000EDF0, 0xA05F0003) -- CPU_WriteMem(4 bytes @ 0xE000EDF0) -- Invalidate MA0 status  returns 0x00 (0001ms, 0383ms total)
T3374 000:404 JLINK_WriteU32(0xE000EDFC, 0x01000000) -- CPU_WriteMem(4 bytes @ 0xE000EDFC)  returns 0x00 (0001ms, 0384ms total)
T3374 000:418 JLINK_GetHWStatus(...)  returns 0x00 (0002ms, 0386ms total)
T3374 000:427 JLINK_GetNumBPUnits(Type = 0xFFFFFF00)  returns 0x06 (0000ms, 0386ms total)
T3374 000:427 JLINK_GetNumBPUnits(Type = 0xF0)  returns 0x2000 (0000ms, 0386ms total)
T3374 000:427 JLINK_GetNumWPUnits()  returns 0x04 (0001ms, 0387ms total)
T3374 000:436 JLINK_GetSpeed()  returns 0x7D0 (0000ms, 0387ms total)
T3374 000:442 JLINK_ReadMemU32(0xE000E004, 0x0001 Items, ...) -- CPU_ReadMem(4 bytes @ 0xE000E004) -- Data:  04 00 00 00  returns 0x01 (0001ms, 0388ms total)
T3374 000:443 JLINK_ReadMemU32(0xE000E004, 0x0001 Items, ...) -- CPU_ReadMem(4 bytes @ 0xE000E004) -- Data:  04 00 00 00  returns 0x01 (0001ms, 0389ms total)
T3374 000:444 JLINK_WriteMem(0xE0001000, 0x001C Bytes, ...) -- Data:  01 00 00 00 00 00 00 00 00 00 00 00 00 00 00 00 ... -- CPU_WriteMem(28 bytes @ 0xE0001000)  returns 0x1C (0001ms, 0390ms total)
T3374 000:445 JLINK_ReadMem (0xE0001000, 0x001C Bytes, ...) -- CPU_ReadMem(28 bytes @ 0xE0001000) -- Data:  01 00 00 40 00 00 00 00 00 00 00 00 00 00 00 00 ...  returns 0x00 (0001ms, 0391ms total)
T3374 000:446 JLINK_Halt()  returns 0x00 (0000ms, 0391ms total)
T3374 000:446 JLINK_IsHalted() -- MA0 is in flash -- Unmirror addr 0x0000026C  returns TRUE (0000ms, 0391ms total)
T3374 000:450 JLINK_WriteMem(0x20000000, 0x0128 Bytes, ...) -- Data:  00 BE 0A E0 0D 78 2D 06 68 40 08 24 40 00 00 D3 ... -- CPU_WriteMem(296 bytes @ 0x20000000)  returns 0x128 (0002ms, 0393ms total)
T3374 000:452 JLINK_WriteReg(R0, 0x00000000)  returns 0x00 (0000ms, 0393ms total)
T3374 000:452 JLINK_WriteReg(R1, 0x00F42400)  returns 0x00 (0000ms, 0393ms total)
T3374 000:452 JLINK_WriteReg(R2, 0x00000001)  returns 0x00 (0001ms, 0394ms total)
T3374 000:453 JLINK_WriteReg(R3, 0x00000000)  returns 0x00 (0000ms, 0394ms total)
T3374 000:453 JLINK_WriteReg(R4, 0x00000000)  returns 0x00 (0000ms, 0394ms total)
T3374 000:453 JLINK_WriteReg(R5, 0x00000000)  returns 0x00 (0000ms, 0394ms total)
T3374 000:453 JLINK_WriteReg(R6, 0x00000000)  returns 0x00 (0000ms, 0394ms total)
T3374 000:453 JLINK_WriteReg(R7, 0x00000000)  returns 0x00 (0000ms, 0394ms total)
T3374 000:453 JLINK_WriteReg(R8, 0x00000000)  returns 0x00 (0000ms, 0394ms total)
T3374 000:453 JLINK_WriteReg(R9, 0x20000124)  returns 0x00 (0000ms, 0394ms total)
T3374 000:453 JLINK_WriteReg(R10, 0x00000000)  returns 0x00 (0000ms, 0394ms total)
T3374 000:453 JLINK_WriteReg(R11, 0x00000000)  returns 0x00 (0000ms, 0394ms total)
T3374 000:453 JLINK_WriteReg(R12, 0x00000000)  returns 0x00 (0000ms, 0394ms total)
T3374 000:453 JLINK_WriteReg(R13, 0x20000800)  returns 0x00 (0000ms, 0394ms total)
T3374 000:453 JLINK_WriteReg(R14, 0x20000001)  returns 0x00 (0000ms, 0394ms total)
T3374 000:453 JLINK_WriteReg(R15, 0x20000038)  returns 0x00 (0000ms, 0394ms total)
T3374 000:453 JLINK_WriteReg(XPSR, 0x01000000)  returns 0x00 (0000ms, 0394ms total)
T3374 000:453 JLINK_WriteReg(MSP, 0x20000800)  returns 0x00 (0000ms, 0394ms total)
T3374 000:453 JLINK_WriteReg(PSP, 0x20000800)  returns 0x00 (0000ms, 0394ms total)
T3374 000:453 JLINK_WriteReg(CFBP, 0x00000000)  returns 0x00 (0000ms, 0394ms total)
T3374 000:453 JLINK_SetBPEx(Addr = 0x20000000, Type = 0xFFFFFFF2) -- CPU_ReadMem(2 bytes @ 0x20000000)  returns 0x00000001 (0001ms, 0395ms total)
T3374 000:454 JLINK_Go() -- CPU_WriteMem(2 bytes @ 0x20000000) -- Invalidate MA0 status -- CPU_WriteMem(4 bytes @ 0xE0002008) -- CPU_WriteMem(4 bytes @ 0xE000200C) -- CPU_WriteMem(4 bytes @ 0xE0002010) -- CPU_WriteMem(4 bytes @ 0xE0002014) -- CPU_WriteMem(4 bytes @ 0xE0002018) -- CPU_WriteMem(4 bytes @ 0xE000201C) (0010ms, 0405ms total)
T3374 000:464 JLINK_IsHalted() -- CPU_ReadMem(2 bytes @ 0x20000000)  returns TRUE (0006ms, 0411ms total)
T3374 000:470 JLINK_ReadReg(R15)  returns 0x20000000 (0000ms, 0405ms total)
T3374 000:470 JLINK_ClrBPEx(BPHandle = 0x00000001)  returns 0x00 (0000ms, 0405ms total)
T3374 000:470 JLINK_ReadReg(R0)  returns 0x00000000 (0000ms, 0405ms total)
T3374 000:471 JLINK_WriteReg(R0, 0x00000000)  returns 0x00 (0000ms, 0405ms total)
T3374 000:471 JLINK_WriteReg(R1, 0x00000400)  returns 0x00 (0000ms, 0405ms total)
T3374 000:471 JLINK_WriteReg(R2, 0x000000FF)  returns 0x00 (0000ms, 0405ms total)
T3374 000:471 JLINK_WriteReg(R3, 0x00000000)  returns 0x00 (0000ms, 0405ms total)
T3374 000:471 JLINK_WriteReg(R4, 0x00000000)  returns 0x00 (0000ms, 0405ms total)
T3374 000:471 JLINK_WriteReg(R5, 0x00000000)  returns 0x00 (0000ms, 0405ms total)
T3374 000:471 JLINK_WriteReg(R6, 0x00000000)  returns 0x00 (0000ms, 0405ms total)
T3374 000:471 JLINK_WriteReg(R7, 0x00000000)  returns 0x00 (0000ms, 0405ms total)
T3374 000:471 JLINK_WriteReg(R8, 0x00000000)  returns 0x00 (0000ms, 0405ms total)
T3374 000:471 JLINK_WriteReg(R9, 0x20000124)  returns 0x00 (0000ms, 0405ms total)
T3374 000:471 JLINK_WriteReg(R10, 0x00000000)  returns 0x00 (0000ms, 0405ms total)
T3374 000:471 JLINK_WriteReg(R11, 0x00000000)  returns 0x00 (0000ms, 0405ms total)
T3374 000:471 JLINK_WriteReg(R12, 0x00000000)  returns 0x00 (0000ms, 0405ms total)
T3374 000:471 JLINK_WriteReg(R13, 0x20000800)  returns 0x00 (0001ms, 0406ms total)
T3374 000:472 JLINK_WriteReg(R14, 0x20000001)  returns 0x00 (0000ms, 0406ms total)
T3374 000:472 JLINK_WriteReg(R15, 0x20000020)  returns 0x00 (0000ms, 0406ms total)
T3374 000:472 JLINK_WriteReg(XPSR, 0x01000000)  returns 0x00 (0000ms, 0406ms total)
T3374 000:472 JLINK_WriteReg(MSP, 0x20000800)  returns 0x00 (0000ms, 0406ms total)
T3374 000:472 JLINK_WriteReg(PSP, 0x20000800)  returns 0x00 (0000ms, 0406ms total)
T3374 000:472 JLINK_WriteReg(CFBP, 0x00000000)  returns 0x00 (0000ms, 0406ms total)
T3374 000:472 JLINK_SetBPEx(Addr = 0x20000000, Type = 0xFFFFFFF2)  returns 0x00000002 (0000ms, 0406ms total)
T3374 000:472 JLINK_Go() (0002ms, 0408ms total)
T3374 000:474 JLINK_IsHalted() -- CPU_ReadMem(2 bytes @ 0x20000000)  returns TRUE (0006ms, 0414ms total)
T3374 000:480 JLINK_ReadReg(R15)  returns 0x20000000 (0000ms, 0408ms total)
T3374 000:480 JLINK_ClrBPEx(BPHandle = 0x00000002)  returns 0x00 (0000ms, 0408ms total)
T3374 000:480 JLINK_ReadReg(R0)  returns 0x00000001 (0000ms, 0408ms total)
T3374 000:480 JLINK_WriteReg(R0, 0x00000000)  returns 0x00 (0000ms, 0408ms total)
T3374 000:480 JLINK_WriteReg(R1, 0x00000400)  returns 0x00 (0000ms, 0408ms total)
T3374 000:480 JLINK_WriteReg(R2, 0x000000FF)  returns 0x00 (0000ms, 0408ms total)
T3374 000:480 JLINK_WriteReg(R3, 0x00000000)  returns 0x00 (0000ms, 0408ms total)
T3374 000:480 JLINK_WriteReg(R4, 0x00000000)  returns 0x00 (0000ms, 0408ms total)
T3374 000:480 JLINK_WriteReg(R5, 0x00000000)  returns 0x00 (0000ms, 0408ms total)
T3374 000:480 JLINK_WriteReg(R6, 0x00000000)  returns 0x00 (0000ms, 0408ms total)
T3374 000:480 JLINK_WriteReg(R7, 0x00000000)  returns 0x00 (0001ms, 0409ms total)
T3374 000:481 JLINK_WriteReg(R8, 0x00000000)  returns 0x00 (0000ms, 0409ms total)
T3374 000:481 JLINK_WriteReg(R9, 0x20000124)  returns 0x00 (0000ms, 0409ms total)
T3374 000:481 JLINK_WriteReg(R10, 0x00000000)  returns 0x00 (0000ms, 0409ms total)
T3374 000:481 JLINK_WriteReg(R11, 0x00000000)  returns 0x00 (0000ms, 0409ms total)
T3374 000:481 JLINK_WriteReg(R12, 0x00000000)  returns 0x00 (0000ms, 0409ms total)
T3374 000:481 JLINK_WriteReg(R13, 0x20000800)  returns 0x00 (0000ms, 0409ms total)
T3374 000:481 JLINK_WriteReg(R14, 0x20000001)  returns 0x00 (0000ms, 0409ms total)
T3374 000:481 JLINK_WriteReg(R15, 0x20000070)  returns 0x00 (0000ms, 0409ms total)
T3374 000:481 JLINK_WriteReg(XPSR, 0x01000000)  returns 0x00 (0000ms, 0409ms total)
T3374 000:481 JLINK_WriteReg(MSP, 0x20000800)  returns 0x00 (0000ms, 0409ms total)
T3374 000:481 JLINK_WriteReg(PSP, 0x20000800)  returns 0x00 (0000ms, 0409ms total)
T3374 000:481 JLINK_WriteReg(CFBP, 0x00000000)  returns 0x00 (0000ms, 0409ms total)
T3374 000:481 JLINK_SetBPEx(Addr = 0x20000000, Type = 0xFFFFFFF2)  returns 0x00000003 (0000ms, 0409ms total)
T3374 000:481 JLINK_Go() (0002ms, 0411ms total)
T3374 000:483 JLINK_IsHalted()  returns FALSE (0001ms, 0412ms total)
T3374 000:543 JLINK_IsHalted() -- CPU_ReadMem(2 bytes @ 0x20000000)  returns TRUE (0006ms, 0417ms total)
T3374 000:549 JLINK_ReadReg(R15)  returns 0x20000000 (0000ms, 0411ms total)
T3374 000:549 JLINK_ClrBPEx(BPHandle = 0x00000003)  returns 0x00 (0000ms, 0411ms total)
T3374 000:549 JLINK_ReadReg(R0)  returns 0x00000000 (0000ms, 0411ms total)
T3374 000:550 JLINK_WriteReg(R0, 0x00000400)  returns 0x00 (0000ms, 0411ms total)
T3374 000:550 JLINK_WriteReg(R1, 0x00000400)  returns 0x00 (0000ms, 0411ms total)
T3374 000:550 JLINK_WriteReg(R2, 0x000000FF)  returns 0x00 (0000ms, 0411ms total)
T3374 000:550 JLINK_WriteReg(R3, 0x00000000)  returns 0x00 (0000ms, 0411ms total)
T3374 000:550 JLINK_WriteReg(R4, 0x00000000)  returns 0x00 (0000ms, 0411ms total)
T3374 000:550 JLINK_WriteReg(R5, 0x00000000)  returns 0x00 (0000ms, 0411ms total)
T3374 000:550 JLINK_WriteReg(R6, 0x00000000)  returns 0x00 (0000ms, 0411ms total)
T3374 000:550 JLINK_WriteReg(R7, 0x00000000)  returns 0x00 (0000ms, 0411ms total)
T3374 000:550 JLINK_WriteReg(R8, 0x00000000)  returns 0x00 (0000ms, 0411ms total)
T3374 000:550 JLINK_WriteReg(R9, 0x20000124)  returns 0x00 (0000ms, 0411ms total)
T3374 000:550 JLINK_WriteReg(R10, 0x00000000)  returns 0x00 (0000ms, 0411ms total)
T3374 000:550 JLINK_WriteReg(R11, 0x00000000)  returns 0x00 (0000ms, 0411ms total)
T3374 000:550 JLINK_WriteReg(R12, 0x00000000)  returns 0x00 (0000ms, 0411ms total)
T3374 000:550 JLINK_WriteReg(R13, 0x20000800)  returns 0x00 (0000ms, 0411ms total)
T3374 000:550 JLINK_WriteReg(R14, 0x20000001)  returns 0x00 (0000ms, 0411ms total)
T3374 000:550 JLINK_WriteReg(R15, 0x20000020)  returns 0x00 (0000ms, 0411ms total)
T3374 000:550 JLINK_WriteReg(XPSR, 0x01000000)  returns 0x00 (0000ms, 0411ms total)
T3374 000:550 JLINK_WriteReg(MSP, 0x20000800)  returns 0x00 (0000ms, 0411ms total)
T3374 000:550 JLINK_WriteReg(PSP, 0x20000800)  returns 0x00 (0000ms, 0411ms total)
T3374 000:550 JLINK_WriteReg(CFBP, 0x00000000)  returns 0x00 (0000ms, 0411ms total)
T3374 000:550 JLINK_SetBPEx(Addr = 0x20000000, Type = 0xFFFFFFF2)  returns 0x00000004 (0000ms, 0411ms total)
T3374 000:550 JLINK_Go() (0002ms, 0413ms total)
T3374 000:552 JLINK_IsHalted() -- CPU_ReadMem(2 bytes @ 0x20000000)  returns TRUE (0006ms, 0419ms total)
T3374 000:558 JLINK_ReadReg(R15)  returns 0x20000000 (0000ms, 0413ms total)
T3374 000:559 JLINK_ClrBPEx(BPHandle = 0x00000004)  returns 0x00 (0000ms, 0414ms total)
T3374 000:559 JLINK_ReadReg(R0)  returns 0x00000001 (0000ms, 0414ms total)
T3374 000:559 JLINK_WriteReg(R0, 0x00000400)  returns 0x00 (0000ms, 0414ms total)
T3374 000:559 JLINK_WriteReg(R1, 0x00000400)  returns 0x00 (0000ms, 0414ms total)
T3374 000:559 JLINK_WriteReg(R2, 0x000000FF)  returns 0x00 (0000ms, 0414ms total)
T3374 000:559 JLINK_WriteReg(R3, 0x00000000)  returns 0x00 (0000ms, 0414ms total)
T3374 000:559 JLINK_WriteReg(R4, 0x00000000)  returns 0x00 (0000ms, 0414ms total)
T3374 000:559 JLINK_WriteReg(R5, 0x00000000)  returns 0x00 (0000ms, 0414ms total)
T3374 000:559 JLINK_WriteReg(R6, 0x00000000)  returns 0x00 (0000ms, 0414ms total)
T3374 000:559 JLINK_WriteReg(R7, 0x00000000)  returns 0x00 (0000ms, 0414ms total)
T3374 000:559 JLINK_WriteReg(R8, 0x00000000)  returns 0x00 (0000ms, 0414ms total)
T3374 000:559 JLINK_WriteReg(R9, 0x20000124)  returns 0x00 (0000ms, 0414ms total)
T3374 000:559 JLINK_WriteReg(R10, 0x00000000)  returns 0x00 (0000ms, 0414ms total)
T3374 000:559 JLINK_WriteReg(R11, 0x00000000)  returns 0x00 (0000ms, 0414ms total)
T3374 000:559 JLINK_WriteReg(R12, 0x00000000)  returns 0x00 (0000ms, 0414ms total)
T3374 000:559 JLINK_WriteReg(R13, 0x20000800)  returns 0x00 (0000ms, 0414ms total)
T3374 000:559 JLINK_WriteReg(R14, 0x20000001)  returns 0x00 (0000ms, 0414ms total)
T3374 000:559 JLINK_WriteReg(R15, 0x20000070)  returns 0x00 (0000ms, 0414ms total)
T3374 000:559 JLINK_WriteReg(XPSR, 0x01000000)  returns 0x00 (0000ms, 0414ms total)
T3374 000:559 JLINK_WriteReg(MSP, 0x20000800)  returns 0x00 (0000ms, 0414ms total)
T3374 000:559 JLINK_WriteReg(PSP, 0x20000800)  returns 0x00 (0000ms, 0414ms total)
T3374 000:559 JLINK_WriteReg(CFBP, 0x00000000)  returns 0x00 (0000ms, 0414ms total)
T3374 000:559 JLINK_SetBPEx(Addr = 0x20000000, Type = 0xFFFFFFF2)  returns 0x00000005 (0000ms, 0414ms total)
T3374 000:559 JLINK_Go() (0002ms, 0416ms total)
T3374 000:561 JLINK_IsHalted()  returns FALSE (0001ms, 0417ms total)
T3374 000:568 JLINK_IsHalted()  returns FALSE (0001ms, 0417ms total)
T3374 000:576 JLINK_IsHalted() -- CPU_ReadMem(2 bytes @ 0x20000000)  returns TRUE (0006ms, 0422ms total)
T3374 000:582 JLINK_ReadReg(R15)  returns 0x20000000 (0000ms, 0416ms total)
T3374 000:582 JLINK_ClrBPEx(BPHandle = 0x00000005)  returns 0x00 (0000ms, 0416ms total)
T3374 000:582 JLINK_ReadReg(R0)  returns 0x00000000 (0000ms, 0416ms total)
T3374 000:582 JLINK_WriteReg(R0, 0x00000800)  returns 0x00 (0000ms, 0416ms total)
T3374 000:582 JLINK_WriteReg(R1, 0x00000400)  returns 0x00 (0000ms, 0416ms total)
T3374 000:582 JLINK_WriteReg(R2, 0x000000FF)  returns 0x00 (0000ms, 0416ms total)
T3374 000:582 JLINK_WriteReg(R3, 0x00000000)  returns 0x00 (0000ms, 0416ms total)
T3374 000:582 JLINK_WriteReg(R4, 0x00000000)  returns 0x00 (0000ms, 0416ms total)
T3374 000:582 JLINK_WriteReg(R5, 0x00000000)  returns 0x00 (0001ms, 0417ms total)
T3374 000:583 JLINK_WriteReg(R6, 0x00000000)  returns 0x00 (0000ms, 0417ms total)
T3374 000:583 JLINK_WriteReg(R7, 0x00000000)  returns 0x00 (0000ms, 0417ms total)
T3374 000:583 JLINK_WriteReg(R8, 0x00000000)  returns 0x00 (0000ms, 0417ms total)
T3374 000:583 JLINK_WriteReg(R9, 0x20000124)  returns 0x00 (0000ms, 0417ms total)
T3374 000:583 JLINK_WriteReg(R10, 0x00000000)  returns 0x00 (0000ms, 0417ms total)
T3374 000:583 JLINK_WriteReg(R11, 0x00000000)  returns 0x00 (0000ms, 0417ms total)
T3374 000:583 JLINK_WriteReg(R12, 0x00000000)  returns 0x00 (0000ms, 0417ms total)
T3374 000:583 JLINK_WriteReg(R13, 0x20000800)  returns 0x00 (0000ms, 0417ms total)
T3374 000:583 JLINK_WriteReg(R14, 0x20000001)  returns 0x00 (0000ms, 0417ms total)
T3374 000:583 JLINK_WriteReg(R15, 0x20000020)  returns 0x00 (0000ms, 0417ms total)
T3374 000:583 JLINK_WriteReg(XPSR, 0x01000000)  returns 0x00 (0000ms, 0417ms total)
T3374 000:583 JLINK_WriteReg(MSP, 0x20000800)  returns 0x00 (0000ms, 0417ms total)
T3374 000:583 JLINK_WriteReg(PSP, 0x20000800)  returns 0x00 (0000ms, 0417ms total)
T3374 000:583 JLINK_WriteReg(CFBP, 0x00000000)  returns 0x00 (0000ms, 0417ms total)
T3374 000:583 JLINK_SetBPEx(Addr = 0x20000000, Type = 0xFFFFFFF2)  returns 0x00000006 (0000ms, 0417ms total)
T3374 000:583 JLINK_Go() (0002ms, 0419ms total)
T3374 000:585 JLINK_IsHalted() -- CPU_ReadMem(2 bytes @ 0x20000000)  returns TRUE (0006ms, 0425ms total)
T3374 000:591 JLINK_ReadReg(R15)  returns 0x20000000 (0000ms, 0419ms total)
T3374 000:591 JLINK_ClrBPEx(BPHandle = 0x00000006)  returns 0x00 (0000ms, 0419ms total)
T3374 000:591 JLINK_ReadReg(R0)  returns 0x00000001 (0000ms, 0419ms total)
T3374 000:591 JLINK_WriteReg(R0, 0x00000800)  returns 0x00 (0000ms, 0419ms total)
T3374 000:591 JLINK_WriteReg(R1, 0x00000400)  returns 0x00 (0000ms, 0419ms total)
T3374 000:591 JLINK_WriteReg(R2, 0x000000FF)  returns 0x00 (0000ms, 0419ms total)
T3374 000:591 JLINK_WriteReg(R3, 0x00000000)  returns 0x00 (0000ms, 0419ms total)
T3374 000:591 JLINK_WriteReg(R4, 0x00000000)  returns 0x00 (0000ms, 0419ms total)
T3374 000:591 JLINK_WriteReg(R5, 0x00000000)  returns 0x00 (0000ms, 0419ms total)
T3374 000:591 JLINK_WriteReg(R6, 0x00000000)  returns 0x00 (0000ms, 0419ms total)
T3374 000:591 JLINK_WriteReg(R7, 0x00000000)  returns 0x00 (0000ms, 0419ms total)
T3374 000:591 JLINK_WriteReg(R8, 0x00000000)  returns 0x00 (0000ms, 0419ms total)
T3374 000:591 JLINK_WriteReg(R9, 0x20000124)  returns 0x00 (0000ms, 0419ms total)
T3374 000:591 JLINK_WriteReg(R10, 0x00000000)  returns 0x00 (0000ms, 0419ms total)
T3374 000:591 JLINK_WriteReg(R11, 0x00000000)  returns 0x00 (0001ms, 0420ms total)
T3374 000:592 JLINK_WriteReg(R12, 0x00000000)  returns 0x00 (0000ms, 0420ms total)
T3374 000:592 JLINK_WriteReg(R13, 0x20000800)  returns 0x00 (0000ms, 0420ms total)
T3374 000:592 JLINK_WriteReg(R14, 0x20000001)  returns 0x00 (0000ms, 0420ms total)
T3374 000:592 JLINK_WriteReg(R15, 0x20000070)  returns 0x00 (0000ms, 0420ms total)
T3374 000:592 JLINK_WriteReg(XPSR, 0x01000000)  returns 0x00 (0000ms, 0420ms total)
T3374 000:592 JLINK_WriteReg(MSP, 0x20000800)  returns 0x00 (0000ms, 0420ms total)
T3374 000:592 JLINK_WriteReg(PSP, 0x20000800)  returns 0x00 (0000ms, 0420ms total)
T3374 000:592 JLINK_WriteReg(CFBP, 0x00000000)  returns 0x00 (0000ms, 0420ms total)
T3374 000:592 JLINK_SetBPEx(Addr = 0x20000000, Type = 0xFFFFFFF2)  returns 0x00000007 (0000ms, 0420ms total)
T3374 000:592 JLINK_Go() (0002ms, 0422ms total)
T3374 000:594 JLINK_IsHalted()  returns FALSE (0001ms, 0423ms total)
T3374 000:599 JLINK_IsHalted()  returns FALSE (0001ms, 0423ms total)
T3374 000:601 JLINK_IsHalted()  returns FALSE (0001ms, 0423ms total)
T3374 000:605 JLINK_IsHalted() -- CPU_ReadMem(2 bytes @ 0x20000000)  returns TRUE (0006ms, 0428ms total)
T3374 000:611 JLINK_ReadReg(R15)  returns 0x20000000 (0000ms, 0422ms total)
T3374 000:611 JLINK_ClrBPEx(BPHandle = 0x00000007)  returns 0x00 (0000ms, 0422ms total)
T3374 000:611 JLINK_ReadReg(R0)  returns 0x00000000 (0000ms, 0422ms total)
T3374 000:611 JLINK_WriteReg(R0, 0x00000C00)  returns 0x00 (0000ms, 0422ms total)
T3374 000:611 JLINK_WriteReg(R1, 0x00000400)  returns 0x00 (0000ms, 0422ms total)
T3374 000:611 JLINK_WriteReg(R2, 0x000000FF)  returns 0x00 (0000ms, 0422ms total)
T3374 000:611 JLINK_WriteReg(R3, 0x00000000)  returns 0x00 (0000ms, 0422ms total)
T3374 000:611 JLINK_WriteReg(R4, 0x00000000)  returns 0x00 (0000ms, 0422ms total)
T3374 000:611 JLINK_WriteReg(R5, 0x00000000)  returns 0x00 (0000ms, 0422ms total)
T3374 000:611 JLINK_WriteReg(R6, 0x00000000)  returns 0x00 (0001ms, 0423ms total)
T3374 000:612 JLINK_WriteReg(R7, 0x00000000)  returns 0x00 (0000ms, 0423ms total)
T3374 000:612 JLINK_WriteReg(R8, 0x00000000)  returns 0x00 (0000ms, 0423ms total)
T3374 000:612 JLINK_WriteReg(R9, 0x20000124)  returns 0x00 (0000ms, 0423ms total)
T3374 000:612 JLINK_WriteReg(R10, 0x00000000)  returns 0x00 (0000ms, 0423ms total)
T3374 000:612 JLINK_WriteReg(R11, 0x00000000)  returns 0x00 (0000ms, 0423ms total)
T3374 000:612 JLINK_WriteReg(R12, 0x00000000)  returns 0x00 (0000ms, 0423ms total)
T3374 000:612 JLINK_WriteReg(R13, 0x20000800)  returns 0x00 (0000ms, 0423ms total)
T3374 000:612 JLINK_WriteReg(R14, 0x20000001)  returns 0x00 (0000ms, 0423ms total)
T3374 000:612 JLINK_WriteReg(R15, 0x20000020)  returns 0x00 (0000ms, 0423ms total)
T3374 000:612 JLINK_WriteReg(XPSR, 0x01000000)  returns 0x00 (0000ms, 0423ms total)
T3374 000:612 JLINK_WriteReg(MSP, 0x20000800)  returns 0x00 (0000ms, 0423ms total)
T3374 000:612 JLINK_WriteReg(PSP, 0x20000800)  returns 0x00 (0000ms, 0423ms total)
T3374 000:612 JLINK_WriteReg(CFBP, 0x00000000)  returns 0x00 (0000ms, 0423ms total)
T3374 000:612 JLINK_SetBPEx(Addr = 0x20000000, Type = 0xFFFFFFF2)  returns 0x00000008 (0000ms, 0423ms total)
T3374 000:612 JLINK_Go() (0002ms, 0425ms total)
T3374 000:614 JLINK_IsHalted() -- CPU_ReadMem(2 bytes @ 0x20000000)  returns TRUE (0006ms, 0431ms total)
T3374 000:620 JLINK_ReadReg(R15)  returns 0x20000000 (0000ms, 0425ms total)
T3374 000:620 JLINK_ClrBPEx(BPHandle = 0x00000008)  returns 0x00 (0000ms, 0425ms total)
T3374 000:620 JLINK_ReadReg(R0)  returns 0x00000001 (0000ms, 0425ms total)
T3374 000:620 JLINK_WriteReg(R0, 0x00000C00)  returns 0x00 (0000ms, 0425ms total)
T3374 000:620 JLINK_WriteReg(R1, 0x00000400)  returns 0x00 (0000ms, 0425ms total)
T3374 000:620 JLINK_WriteReg(R2, 0x000000FF)  returns 0x00 (0000ms, 0425ms total)
T3374 000:620 JLINK_WriteReg(R3, 0x00000000)  returns 0x00 (0000ms, 0425ms total)
T3374 000:620 JLINK_WriteReg(R4, 0x00000000)  returns 0x00 (0000ms, 0425ms total)
T3374 000:620 JLINK_WriteReg(R5, 0x00000000)  returns 0x00 (0000ms, 0425ms total)
T3374 000:620 JLINK_WriteReg(R6, 0x00000000)  returns 0x00 (0000ms, 0425ms total)
T3374 000:620 JLINK_WriteReg(R7, 0x00000000)  returns 0x00 (0000ms, 0425ms total)
T3374 000:620 JLINK_WriteReg(R8, 0x00000000)  returns 0x00 (0000ms, 0425ms total)
T3374 000:620 JLINK_WriteReg(R9, 0x20000124)  returns 0x00 (0000ms, 0425ms total)
T3374 000:620 JLINK_WriteReg(R10, 0x00000000)  returns 0x00 (0000ms, 0425ms total)
T3374 000:620 JLINK_WriteReg(R11, 0x00000000)  returns 0x00 (0000ms, 0425ms total)
T3374 000:621 JLINK_WriteReg(R12, 0x00000000)  returns 0x00 (0000ms, 0426ms total)
T3374 000:621 JLINK_WriteReg(R13, 0x20000800)  returns 0x00 (0000ms, 0426ms total)
T3374 000:621 JLINK_WriteReg(R14, 0x20000001)  returns 0x00 (0000ms, 0426ms total)
T3374 000:621 JLINK_WriteReg(R15, 0x20000070)  returns 0x00 (0000ms, 0426ms total)
T3374 000:621 JLINK_WriteReg(XPSR, 0x01000000)  returns 0x00 (0000ms, 0426ms total)
T3374 000:621 JLINK_WriteReg(MSP, 0x20000800)  returns 0x00 (0000ms, 0426ms total)
T3374 000:621 JLINK_WriteReg(PSP, 0x20000800)  returns 0x00 (0000ms, 0426ms total)
T3374 000:621 JLINK_WriteReg(CFBP, 0x00000000)  returns 0x00 (0000ms, 0426ms total)
T3374 000:621 JLINK_SetBPEx(Addr = 0x20000000, Type = 0xFFFFFFF2)  returns 0x00000009 (0000ms, 0426ms total)
T3374 000:621 JLINK_Go() (0002ms, 0428ms total)
T3374 000:623 JLINK_IsHalted()  returns FALSE (0001ms, 0429ms total)
T3374 000:631 JLINK_IsHalted() -- CPU_ReadMem(2 bytes @ 0x20000000)  returns TRUE (0006ms, 0434ms total)
T3374 000:637 JLINK_ReadReg(R15)  returns 0x20000000 (0000ms, 0428ms total)
T3374 000:637 JLINK_ClrBPEx(BPHandle = 0x00000009)  returns 0x00 (0000ms, 0428ms total)
T3374 000:637 JLINK_ReadReg(R0)  returns 0x00000000 (0000ms, 0428ms total)
T3374 000:637 JLINK_WriteReg(R0, 0x00001000)  returns 0x00 (0000ms, 0428ms total)
T3374 000:637 JLINK_WriteReg(R1, 0x00000400)  returns 0x00 (0000ms, 0428ms total)
T3374 000:637 JLINK_WriteReg(R2, 0x000000FF)  returns 0x00 (0000ms, 0428ms total)
T3374 000:637 JLINK_WriteReg(R3, 0x00000000)  returns 0x00 (0000ms, 0428ms total)
T3374 000:637 JLINK_WriteReg(R4, 0x00000000)  returns 0x00 (0001ms, 0429ms total)
T3374 000:638 JLINK_WriteReg(R5, 0x00000000)  returns 0x00 (0000ms, 0429ms total)
T3374 000:638 JLINK_WriteReg(R6, 0x00000000)  returns 0x00 (0000ms, 0429ms total)
T3374 000:638 JLINK_WriteReg(R7, 0x00000000)  returns 0x00 (0000ms, 0429ms total)
T3374 000:638 JLINK_WriteReg(R8, 0x00000000)  returns 0x00 (0000ms, 0429ms total)
T3374 000:638 JLINK_WriteReg(R9, 0x20000124)  returns 0x00 (0000ms, 0429ms total)
T3374 000:638 JLINK_WriteReg(R10, 0x00000000)  returns 0x00 (0000ms, 0429ms total)
T3374 000:638 JLINK_WriteReg(R11, 0x00000000)  returns 0x00 (0000ms, 0429ms total)
T3374 000:638 JLINK_WriteReg(R12, 0x00000000)  returns 0x00 (0000ms, 0429ms total)
T3374 000:638 JLINK_WriteReg(R13, 0x20000800)  returns 0x00 (0000ms, 0429ms total)
T3374 000:638 JLINK_WriteReg(R14, 0x20000001)  returns 0x00 (0000ms, 0429ms total)
T3374 000:638 JLINK_WriteReg(R15, 0x20000020)  returns 0x00 (0000ms, 0429ms total)
T3374 000:638 JLINK_WriteReg(XPSR, 0x01000000)  returns 0x00 (0000ms, 0429ms total)
T3374 000:638 JLINK_WriteReg(MSP, 0x20000800)  returns 0x00 (0000ms, 0429ms total)
T3374 000:638 JLINK_WriteReg(PSP, 0x20000800)  returns 0x00 (0000ms, 0429ms total)
T3374 000:638 JLINK_WriteReg(CFBP, 0x00000000)  returns 0x00 (0000ms, 0429ms total)
T3374 000:638 JLINK_SetBPEx(Addr = 0x20000000, Type = 0xFFFFFFF2)  returns 0x0000000A (0000ms, 0429ms total)
T3374 000:638 JLINK_Go() (0002ms, 0431ms total)
T3374 000:640 JLINK_IsHalted() -- CPU_ReadMem(2 bytes @ 0x20000000)  returns TRUE (0006ms, 0437ms total)
T3374 000:646 JLINK_ReadReg(R15)  returns 0x20000000 (0000ms, 0431ms total)
T3374 000:646 JLINK_ClrBPEx(BPHandle = 0x0000000A)  returns 0x00 (0000ms, 0431ms total)
T3374 000:646 JLINK_ReadReg(R0)  returns 0x00000001 (0000ms, 0431ms total)
T3374 000:646 JLINK_WriteReg(R0, 0x00001000)  returns 0x00 (0000ms, 0431ms total)
T3374 000:646 JLINK_WriteReg(R1, 0x00000400)  returns 0x00 (0000ms, 0431ms total)
T3374 000:646 JLINK_WriteReg(R2, 0x000000FF)  returns 0x00 (0000ms, 0431ms total)
T3374 000:646 JLINK_WriteReg(R3, 0x00000000)  returns 0x00 (0000ms, 0431ms total)
T3374 000:646 JLINK_WriteReg(R4, 0x00000000)  returns 0x00 (0000ms, 0431ms total)
T3374 000:646 JLINK_WriteReg(R5, 0x00000000)  returns 0x00 (0001ms, 0432ms total)
T3374 000:647 JLINK_WriteReg(R6, 0x00000000)  returns 0x00 (0000ms, 0432ms total)
T3374 000:647 JLINK_WriteReg(R7, 0x00000000)  returns 0x00 (0000ms, 0432ms total)
T3374 000:647 JLINK_WriteReg(R8, 0x00000000)  returns 0x00 (0000ms, 0432ms total)
T3374 000:647 JLINK_WriteReg(R9, 0x20000124)  returns 0x00 (0000ms, 0432ms total)
T3374 000:647 JLINK_WriteReg(R10, 0x00000000)  returns 0x00 (0000ms, 0432ms total)
T3374 000:647 JLINK_WriteReg(R11, 0x00000000)  returns 0x00 (0000ms, 0432ms total)
T3374 000:647 JLINK_WriteReg(R12, 0x00000000)  returns 0x00 (0000ms, 0432ms total)
T3374 000:647 JLINK_WriteReg(R13, 0x20000800)  returns 0x00 (0000ms, 0432ms total)
T3374 000:647 JLINK_WriteReg(R14, 0x20000001)  returns 0x00 (0000ms, 0432ms total)
T3374 000:647 JLINK_WriteReg(R15, 0x20000070)  returns 0x00 (0000ms, 0432ms total)
T3374 000:647 JLINK_WriteReg(XPSR, 0x01000000)  returns 0x00 (0000ms, 0432ms total)
T3374 000:647 JLINK_WriteReg(MSP, 0x20000800)  returns 0x00 (0000ms, 0432ms total)
T3374 000:647 JLINK_WriteReg(PSP, 0x20000800)  returns 0x00 (0000ms, 0432ms total)
T3374 000:647 JLINK_WriteReg(CFBP, 0x00000000)  returns 0x00 (0000ms, 0432ms total)
T3374 000:647 JLINK_SetBPEx(Addr = 0x20000000, Type = 0xFFFFFFF2)  returns 0x0000000B (0000ms, 0432ms total)
T3374 000:647 JLINK_Go() (0002ms, 0434ms total)
T3374 000:649 JLINK_IsHalted()  returns FALSE (0001ms, 0435ms total)
T3374 000:658 JLINK_IsHalted()  returns FALSE (0001ms, 0435ms total)
T3374 000:661 JLINK_IsHalted() -- CPU_ReadMem(2 bytes @ 0x20000000)  returns TRUE (0006ms, 0440ms total)
T3374 000:667 JLINK_ReadReg(R15)  returns 0x20000000 (0000ms, 0434ms total)
T3374 000:667 JLINK_ClrBPEx(BPHandle = 0x0000000B)  returns 0x00 (0000ms, 0434ms total)
T3374 000:667 JLINK_ReadReg(R0)  returns 0x00000000 (0000ms, 0434ms total)
T3374 000:667 JLINK_WriteReg(R0, 0x00001400)  returns 0x00 (0000ms, 0434ms total)
T3374 000:667 JLINK_WriteReg(R1, 0x00000400)  returns 0x00 (0000ms, 0434ms total)
T3374 000:667 JLINK_WriteReg(R2, 0x000000FF)  returns 0x00 (0000ms, 0434ms total)
T3374 000:667 JLINK_WriteReg(R3, 0x00000000)  returns 0x00 (0000ms, 0434ms total)
T3374 000:667 JLINK_WriteReg(R4, 0x00000000)  returns 0x00 (0000ms, 0434ms total)
T3374 000:667 JLINK_WriteReg(R5, 0x00000000)  returns 0x00 (0001ms, 0435ms total)
T3374 000:668 JLINK_WriteReg(R6, 0x00000000)  returns 0x00 (0000ms, 0435ms total)
T3374 000:668 JLINK_WriteReg(R7, 0x00000000)  returns 0x00 (0000ms, 0435ms total)
T3374 000:668 JLINK_WriteReg(R8, 0x00000000)  returns 0x00 (0000ms, 0435ms total)
T3374 000:668 JLINK_WriteReg(R9, 0x20000124)  returns 0x00 (0000ms, 0435ms total)
T3374 000:668 JLINK_WriteReg(R10, 0x00000000)  returns 0x00 (0000ms, 0435ms total)
T3374 000:668 JLINK_WriteReg(R11, 0x00000000)  returns 0x00 (0000ms, 0435ms total)
T3374 000:668 JLINK_WriteReg(R12, 0x00000000)  returns 0x00 (0000ms, 0435ms total)
T3374 000:668 JLINK_WriteReg(R13, 0x20000800)  returns 0x00 (0000ms, 0435ms total)
T3374 000:668 JLINK_WriteReg(R14, 0x20000001)  returns 0x00 (0000ms, 0435ms total)
T3374 000:668 JLINK_WriteReg(R15, 0x20000020)  returns 0x00 (0000ms, 0435ms total)
T3374 000:668 JLINK_WriteReg(XPSR, 0x01000000)  returns 0x00 (0000ms, 0435ms total)
T3374 000:668 JLINK_WriteReg(MSP, 0x20000800)  returns 0x00 (0000ms, 0435ms total)
T3374 000:668 JLINK_WriteReg(PSP, 0x20000800)  returns 0x00 (0000ms, 0435ms total)
T3374 000:668 JLINK_WriteReg(CFBP, 0x00000000)  returns 0x00 (0000ms, 0435ms total)
T3374 000:668 JLINK_SetBPEx(Addr = 0x20000000, Type = 0xFFFFFFF2)  returns 0x0000000C (0000ms, 0435ms total)
T3374 000:668 JLINK_Go() (0002ms, 0437ms total)
T3374 000:670 JLINK_IsHalted() -- CPU_ReadMem(2 bytes @ 0x20000000)  returns TRUE (0006ms, 0443ms total)
T3374 000:676 JLINK_ReadReg(R15)  returns 0x20000000 (0000ms, 0437ms total)
T3374 000:676 JLINK_ClrBPEx(BPHandle = 0x0000000C)  returns 0x00 (0000ms, 0437ms total)
T3374 000:676 JLINK_ReadReg(R0)  returns 0x00000001 (0000ms, 0437ms total)
T3374 000:676 JLINK_WriteReg(R0, 0x00001400)  returns 0x00 (0000ms, 0437ms total)
T3374 000:676 JLINK_WriteReg(R1, 0x00000400)  returns 0x00 (0000ms, 0437ms total)
T3374 000:676 JLINK_WriteReg(R2, 0x000000FF)  returns 0x00 (0000ms, 0437ms total)
T3374 000:676 JLINK_WriteReg(R3, 0x00000000)  returns 0x00 (0000ms, 0437ms total)
T3374 000:676 JLINK_WriteReg(R4, 0x00000000)  returns 0x00 (0000ms, 0437ms total)
T3374 000:676 JLINK_WriteReg(R5, 0x00000000)  returns 0x00 (0000ms, 0437ms total)
T3374 000:676 JLINK_WriteReg(R6, 0x00000000)  returns 0x00 (0000ms, 0437ms total)
T3374 000:676 JLINK_WriteReg(R7, 0x00000000)  returns 0x00 (0000ms, 0437ms total)
T3374 000:676 JLINK_WriteReg(R8, 0x00000000)  returns 0x00 (0000ms, 0437ms total)
T3374 000:676 JLINK_WriteReg(R9, 0x20000124)  returns 0x00 (0000ms, 0437ms total)
T3374 000:676 JLINK_WriteReg(R10, 0x00000000)  returns 0x00 (0001ms, 0438ms total)
T3374 000:677 JLINK_WriteReg(R11, 0x00000000)  returns 0x00 (0000ms, 0438ms total)
T3374 000:677 JLINK_WriteReg(R12, 0x00000000)  returns 0x00 (0000ms, 0438ms total)
T3374 000:677 JLINK_WriteReg(R13, 0x20000800)  returns 0x00 (0000ms, 0438ms total)
T3374 000:677 JLINK_WriteReg(R14, 0x20000001)  returns 0x00 (0000ms, 0438ms total)
T3374 000:677 JLINK_WriteReg(R15, 0x20000070)  returns 0x00 (0000ms, 0438ms total)
T3374 000:677 JLINK_WriteReg(XPSR, 0x01000000)  returns 0x00 (0000ms, 0438ms total)
T3374 000:677 JLINK_WriteReg(MSP, 0x20000800)  returns 0x00 (0000ms, 0438ms total)
T3374 000:677 JLINK_WriteReg(PSP, 0x20000800)  returns 0x00 (0000ms, 0438ms total)
T3374 000:677 JLINK_WriteReg(CFBP, 0x00000000)  returns 0x00 (0000ms, 0438ms total)
T3374 000:677 JLINK_SetBPEx(Addr = 0x20000000, Type = 0xFFFFFFF2)  returns 0x0000000D (0000ms, 0438ms total)
T3374 000:677 JLINK_Go() (0002ms, 0440ms total)
T3374 000:679 JLINK_IsHalted()  returns FALSE (0001ms, 0441ms total)
T3374 000:690 JLINK_IsHalted() -- CPU_ReadMem(2 bytes @ 0x20000000)  returns TRUE (0006ms, 0446ms total)
T3374 000:696 JLINK_ReadReg(R15)  returns 0x20000000 (0000ms, 0440ms total)
T3374 000:696 JLINK_ClrBPEx(BPHandle = 0x0000000D)  returns 0x00 (0000ms, 0440ms total)
T3374 000:696 JLINK_ReadReg(R0)  returns 0x00000000 (0000ms, 0440ms total)
T3374 000:696 JLINK_WriteReg(R0, 0x00001800)  returns 0x00 (0000ms, 0440ms total)
T3374 000:696 JLINK_WriteReg(R1, 0x00000400)  returns 0x00 (0000ms, 0440ms total)
T3374 000:696 JLINK_WriteReg(R2, 0x000000FF)  returns 0x00 (0000ms, 0440ms total)
T3374 000:696 JLINK_WriteReg(R3, 0x00000000)  returns 0x00 (0000ms, 0440ms total)
T3374 000:696 JLINK_WriteReg(R4, 0x00000000)  returns 0x00 (0000ms, 0440ms total)
T3374 000:696 JLINK_WriteReg(R5, 0x00000000)  returns 0x00 (0000ms, 0440ms total)
T3374 000:696 JLINK_WriteReg(R6, 0x00000000)  returns 0x00 (0000ms, 0440ms total)
T3374 000:696 JLINK_WriteReg(R7, 0x00000000)  returns 0x00 (0000ms, 0440ms total)
T3374 000:696 JLINK_WriteReg(R8, 0x00000000)  returns 0x00 (0001ms, 0441ms total)
T3374 000:697 JLINK_WriteReg(R9, 0x20000124)  returns 0x00 (0000ms, 0441ms total)
T3374 000:697 JLINK_WriteReg(R10, 0x00000000)  returns 0x00 (0000ms, 0441ms total)
T3374 000:697 JLINK_WriteReg(R11, 0x00000000)  returns 0x00 (0000ms, 0441ms total)
T3374 000:697 JLINK_WriteReg(R12, 0x00000000)  returns 0x00 (0000ms, 0441ms total)
T3374 000:697 JLINK_WriteReg(R13, 0x20000800)  returns 0x00 (0000ms, 0441ms total)
T3374 000:697 JLINK_WriteReg(R14, 0x20000001)  returns 0x00 (0000ms, 0441ms total)
T3374 000:697 JLINK_WriteReg(R15, 0x20000020)  returns 0x00 (0000ms, 0441ms total)
T3374 000:697 JLINK_WriteReg(XPSR, 0x01000000)  returns 0x00 (0000ms, 0441ms total)
T3374 000:697 JLINK_WriteReg(MSP, 0x20000800)  returns 0x00 (0000ms, 0441ms total)
T3374 000:697 JLINK_WriteReg(PSP, 0x20000800)  returns 0x00 (0000ms, 0441ms total)
T3374 000:697 JLINK_WriteReg(CFBP, 0x00000000)  returns 0x00 (0000ms, 0441ms total)
T3374 000:697 JLINK_SetBPEx(Addr = 0x20000000, Type = 0xFFFFFFF2)  returns 0x0000000E (0000ms, 0441ms total)
T3374 000:697 JLINK_Go() (0002ms, 0443ms total)
T3374 000:699 JLINK_IsHalted() -- CPU_ReadMem(2 bytes @ 0x20000000)  returns TRUE (0006ms, 0449ms total)
T3374 000:705 JLINK_ReadReg(R15)  returns 0x20000000 (0000ms, 0443ms total)
T3374 000:705 JLINK_ClrBPEx(BPHandle = 0x0000000E)  returns 0x00 (0000ms, 0443ms total)
T3374 000:705 JLINK_ReadReg(R0)  returns 0x00000001 (0000ms, 0443ms total)
T3374 000:705 JLINK_WriteReg(R0, 0x00001800)  returns 0x00 (0000ms, 0443ms total)
T3374 000:705 JLINK_WriteReg(R1, 0x00000400)  returns 0x00 (0000ms, 0443ms total)
T3374 000:705 JLINK_WriteReg(R2, 0x000000FF)  returns 0x00 (0000ms, 0443ms total)
T3374 000:705 JLINK_WriteReg(R3, 0x00000000)  returns 0x00 (0000ms, 0443ms total)
T3374 000:705 JLINK_WriteReg(R4, 0x00000000)  returns 0x00 (0000ms, 0443ms total)
T3374 000:705 JLINK_WriteReg(R5, 0x00000000)  returns 0x00 (0000ms, 0443ms total)
T3374 000:705 JLINK_WriteReg(R6, 0x00000000)  returns 0x00 (0000ms, 0443ms total)
T3374 000:705 JLINK_WriteReg(R7, 0x00000000)  returns 0x00 (0000ms, 0443ms total)
T3374 000:705 JLINK_WriteReg(R8, 0x00000000)  returns 0x00 (0000ms, 0443ms total)
T3374 000:705 JLINK_WriteReg(R9, 0x20000124)  returns 0x00 (0000ms, 0443ms total)
T3374 000:705 JLINK_WriteReg(R10, 0x00000000)  returns 0x00 (0000ms, 0443ms total)
T3374 000:705 JLINK_WriteReg(R11, 0x00000000)  returns 0x00 (0000ms, 0443ms total)
T3374 000:705 JLINK_WriteReg(R12, 0x00000000)  returns 0x00 (0000ms, 0443ms total)
T3374 000:705 JLINK_WriteReg(R13, 0x20000800)  returns 0x00 (0000ms, 0443ms total)
T3374 000:705 JLINK_WriteReg(R14, 0x20000001)  returns 0x00 (0000ms, 0443ms total)
T3374 000:705 JLINK_WriteReg(R15, 0x20000070)  returns 0x00 (0000ms, 0443ms total)
T3374 000:705 JLINK_WriteReg(XPSR, 0x01000000)  returns 0x00 (0001ms, 0444ms total)
T3374 000:706 JLINK_WriteReg(MSP, 0x20000800)  returns 0x00 (0000ms, 0444ms total)
T3374 000:706 JLINK_WriteReg(PSP, 0x20000800)  returns 0x00 (0000ms, 0444ms total)
T3374 000:706 JLINK_WriteReg(CFBP, 0x00000000)  returns 0x00 (0000ms, 0444ms total)
T3374 000:706 JLINK_SetBPEx(Addr = 0x20000000, Type = 0xFFFFFFF2)  returns 0x0000000F (0000ms, 0444ms total)
T3374 000:706 JLINK_Go() (0002ms, 0446ms total)
T3374 000:708 JLINK_IsHalted()  returns FALSE (0001ms, 0447ms total)
T3374 000:714 JLINK_IsHalted()  returns FALSE (0001ms, 0447ms total)
T3374 000:717 JLINK_IsHalted() -- CPU_ReadMem(2 bytes @ 0x20000000)  returns TRUE (0006ms, 0452ms total)
T3374 000:723 JLINK_ReadReg(R15)  returns 0x20000000 (0000ms, 0446ms total)
T3374 000:723 JLINK_ClrBPEx(BPHandle = 0x0000000F)  returns 0x00 (0000ms, 0446ms total)
T3374 000:723 JLINK_ReadReg(R0)  returns 0x00000000 (0000ms, 0446ms total)
T3374 000:723 JLINK_WriteReg(R0, 0x00001C00)  returns 0x00 (0000ms, 0446ms total)
T3374 000:723 JLINK_WriteReg(R1, 0x00000400)  returns 0x00 (0000ms, 0446ms total)
T3374 000:723 JLINK_WriteReg(R2, 0x000000FF)  returns 0x00 (0000ms, 0446ms total)
T3374 000:723 JLINK_WriteReg(R3, 0x00000000)  returns 0x00 (0000ms, 0446ms total)
T3374 000:723 JLINK_WriteReg(R4, 0x00000000)  returns 0x00 (0000ms, 0446ms total)
T3374 000:723 JLINK_WriteReg(R5, 0x00000000)  returns 0x00 (0000ms, 0446ms total)
T3374 000:723 JLINK_WriteReg(R6, 0x00000000)  returns 0x00 (0001ms, 0447ms total)
T3374 000:724 JLINK_WriteReg(R7, 0x00000000)  returns 0x00 (0000ms, 0447ms total)
T3374 000:724 JLINK_WriteReg(R8, 0x00000000)  returns 0x00 (0000ms, 0447ms total)
T3374 000:724 JLINK_WriteReg(R9, 0x20000124)  returns 0x00 (0000ms, 0447ms total)
T3374 000:724 JLINK_WriteReg(R10, 0x00000000)  returns 0x00 (0000ms, 0447ms total)
T3374 000:724 JLINK_WriteReg(R11, 0x00000000)  returns 0x00 (0000ms, 0447ms total)
T3374 000:724 JLINK_WriteReg(R12, 0x00000000)  returns 0x00 (0000ms, 0447ms total)
T3374 000:724 JLINK_WriteReg(R13, 0x20000800)  returns 0x00 (0000ms, 0447ms total)
T3374 000:724 JLINK_WriteReg(R14, 0x20000001)  returns 0x00 (0000ms, 0447ms total)
T3374 000:724 JLINK_WriteReg(R15, 0x20000020)  returns 0x00 (0000ms, 0447ms total)
T3374 000:724 JLINK_WriteReg(XPSR, 0x01000000)  returns 0x00 (0000ms, 0447ms total)
T3374 000:724 JLINK_WriteReg(MSP, 0x20000800)  returns 0x00 (0000ms, 0447ms total)
T3374 000:724 JLINK_WriteReg(PSP, 0x20000800)  returns 0x00 (0000ms, 0447ms total)
T3374 000:724 JLINK_WriteReg(CFBP, 0x00000000)  returns 0x00 (0000ms, 0447ms total)
T3374 000:724 JLINK_SetBPEx(Addr = 0x20000000, Type = 0xFFFFFFF2)  returns 0x00000010 (0000ms, 0447ms total)
T3374 000:724 JLINK_Go() (0002ms, 0449ms total)
T3374 000:726 JLINK_IsHalted() -- CPU_ReadMem(2 bytes @ 0x20000000)  returns TRUE (0006ms, 0455ms total)
T3374 000:732 JLINK_ReadReg(R15)  returns 0x20000000 (0000ms, 0449ms total)
T3374 000:732 JLINK_ClrBPEx(BPHandle = 0x00000010)  returns 0x00 (0000ms, 0449ms total)
T3374 000:732 JLINK_ReadReg(R0)  returns 0x00000001 (0000ms, 0449ms total)
T3374 000:732 JLINK_WriteReg(R0, 0x00001C00)  returns 0x00 (0000ms, 0449ms total)
T3374 000:732 JLINK_WriteReg(R1, 0x00000400)  returns 0x00 (0000ms, 0449ms total)
T3374 000:732 JLINK_WriteReg(R2, 0x000000FF)  returns 0x00 (0000ms, 0449ms total)
T3374 000:732 JLINK_WriteReg(R3, 0x00000000)  returns 0x00 (0000ms, 0449ms total)
T3374 000:732 JLINK_WriteReg(R4, 0x00000000)  returns 0x00 (0000ms, 0449ms total)
T3374 000:732 JLINK_WriteReg(R5, 0x00000000)  returns 0x00 (0000ms, 0449ms total)
T3374 000:732 JLINK_WriteReg(R6, 0x00000000)  returns 0x00 (0000ms, 0449ms total)
T3374 000:732 JLINK_WriteReg(R7, 0x00000000)  returns 0x00 (0000ms, 0449ms total)
T3374 000:732 JLINK_WriteReg(R8, 0x00000000)  returns 0x00 (0000ms, 0449ms total)
T3374 000:732 JLINK_WriteReg(R9, 0x20000124)  returns 0x00 (0000ms, 0449ms total)
T3374 000:732 JLINK_WriteReg(R10, 0x00000000)  returns 0x00 (0000ms, 0449ms total)
T3374 000:732 JLINK_WriteReg(R11, 0x00000000)  returns 0x00 (0000ms, 0449ms total)
T3374 000:732 JLINK_WriteReg(R12, 0x00000000)  returns 0x00 (0000ms, 0449ms total)
T3374 000:732 JLINK_WriteReg(R13, 0x20000800)  returns 0x00 (0000ms, 0449ms total)
T3374 000:732 JLINK_WriteReg(R14, 0x20000001)  returns 0x00 (0001ms, 0450ms total)
T3374 000:733 JLINK_WriteReg(R15, 0x20000070)  returns 0x00 (0000ms, 0450ms total)
T3374 000:733 JLINK_WriteReg(XPSR, 0x01000000)  returns 0x00 (0000ms, 0450ms total)
T3374 000:733 JLINK_WriteReg(MSP, 0x20000800)  returns 0x00 (0000ms, 0450ms total)
T3374 000:733 JLINK_WriteReg(PSP, 0x20000800)  returns 0x00 (0000ms, 0450ms total)
T3374 000:733 JLINK_WriteReg(CFBP, 0x00000000)  returns 0x00 (0000ms, 0450ms total)
T3374 000:733 JLINK_SetBPEx(Addr = 0x20000000, Type = 0xFFFFFFF2)  returns 0x00000011 (0000ms, 0450ms total)
T3374 000:733 JLINK_Go() (0002ms, 0452ms total)
T3374 000:735 JLINK_IsHalted()  returns FALSE (0001ms, 0453ms total)
T3374 000:745 JLINK_IsHalted() -- CPU_ReadMem(2 bytes @ 0x20000000)  returns TRUE (0006ms, 0458ms total)
T3374 000:751 JLINK_ReadReg(R15)  returns 0x20000000 (0000ms, 0452ms total)
T3374 000:751 JLINK_ClrBPEx(BPHandle = 0x00000011)  returns 0x00 (0000ms, 0452ms total)
T3374 000:751 JLINK_ReadReg(R0)  returns 0x00000000 (0000ms, 0452ms total)
T3374 000:751 JLINK_WriteReg(R0, 0x00002000)  returns 0x00 (0000ms, 0452ms total)
T3374 000:751 JLINK_WriteReg(R1, 0x00000400)  returns 0x00 (0000ms, 0452ms total)
T3374 000:751 JLINK_WriteReg(R2, 0x000000FF)  returns 0x00 (0000ms, 0452ms total)
T3374 000:751 JLINK_WriteReg(R3, 0x00000000)  returns 0x00 (0000ms, 0452ms total)
T3374 000:751 JLINK_WriteReg(R4, 0x00000000)  returns 0x00 (0000ms, 0452ms total)
T3374 000:751 JLINK_WriteReg(R5, 0x00000000)  returns 0x00 (0000ms, 0452ms total)
T3374 000:751 JLINK_WriteReg(R6, 0x00000000)  returns 0x00 (0001ms, 0453ms total)
T3374 000:752 JLINK_WriteReg(R7, 0x00000000)  returns 0x00 (0000ms, 0453ms total)
T3374 000:752 JLINK_WriteReg(R8, 0x00000000)  returns 0x00 (0000ms, 0453ms total)
T3374 000:752 JLINK_WriteReg(R9, 0x20000124)  returns 0x00 (0000ms, 0453ms total)
T3374 000:752 JLINK_WriteReg(R10, 0x00000000)  returns 0x00 (0000ms, 0453ms total)
T3374 000:752 JLINK_WriteReg(R11, 0x00000000)  returns 0x00 (0000ms, 0453ms total)
T3374 000:752 JLINK_WriteReg(R12, 0x00000000)  returns 0x00 (0000ms, 0453ms total)
T3374 000:752 JLINK_WriteReg(R13, 0x20000800)  returns 0x00 (0000ms, 0453ms total)
T3374 000:752 JLINK_WriteReg(R14, 0x20000001)  returns 0x00 (0000ms, 0453ms total)
T3374 000:752 JLINK_WriteReg(R15, 0x20000020)  returns 0x00 (0000ms, 0453ms total)
T3374 000:752 JLINK_WriteReg(XPSR, 0x01000000)  returns 0x00 (0000ms, 0453ms total)
T3374 000:752 JLINK_WriteReg(MSP, 0x20000800)  returns 0x00 (0000ms, 0453ms total)
T3374 000:752 JLINK_WriteReg(PSP, 0x20000800)  returns 0x00 (0000ms, 0453ms total)
T3374 000:752 JLINK_WriteReg(CFBP, 0x00000000)  returns 0x00 (0000ms, 0453ms total)
T3374 000:752 JLINK_SetBPEx(Addr = 0x20000000, Type = 0xFFFFFFF2)  returns 0x00000012 (0000ms, 0453ms total)
T3374 000:752 JLINK_Go() (0002ms, 0455ms total)
T3374 000:754 JLINK_IsHalted() -- CPU_ReadMem(2 bytes @ 0x20000000)  returns TRUE (0006ms, 0461ms total)
T3374 000:760 JLINK_ReadReg(R15)  returns 0x20000000 (0000ms, 0455ms total)
T3374 000:760 JLINK_ClrBPEx(BPHandle = 0x00000012)  returns 0x00 (0000ms, 0455ms total)
T3374 000:760 JLINK_ReadReg(R0)  returns 0x00000001 (0000ms, 0455ms total)
T3374 000:760 JLINK_WriteReg(R0, 0x00002000)  returns 0x00 (0000ms, 0455ms total)
T3374 000:760 JLINK_WriteReg(R1, 0x00000400)  returns 0x00 (0000ms, 0455ms total)
T3374 000:760 JLINK_WriteReg(R2, 0x000000FF)  returns 0x00 (0000ms, 0455ms total)
T3374 000:760 JLINK_WriteReg(R3, 0x00000000)  returns 0x00 (0000ms, 0455ms total)
T3374 000:760 JLINK_WriteReg(R4, 0x00000000)  returns 0x00 (0000ms, 0455ms total)
T3374 000:760 JLINK_WriteReg(R5, 0x00000000)  returns 0x00 (0000ms, 0455ms total)
T3374 000:760 JLINK_WriteReg(R6, 0x00000000)  returns 0x00 (0000ms, 0455ms total)
T3374 000:760 JLINK_WriteReg(R7, 0x00000000)  returns 0x00 (0000ms, 0455ms total)
T3374 000:760 JLINK_WriteReg(R8, 0x00000000)  returns 0x00 (0000ms, 0455ms total)
